
-> 01 03 23 1c 00 04 8e 4b
<- 01 03 08 00 04 00 01 00 06 00 0a 8d d1

-> 01 03 d2 00 00 01 bd 72
<- 01 03 02 00 00 b8 44

-> 01 03 d0 00 00 26 fc d0
<- 01 03 4c 0c fe 0d 01 0d 00 0c fe ee 49 ee 49 ee 49 ee 49
<- ee 49 ee 49 ee 49 ee 49 ee 49 ee 49 ee 49 ee 49 ee 49 ee 49
<- ee 49 ee 49 ee 49 ee 49 ee 49 ee 49 ee 49 ee 49 ee 49 ee 49
<- ee 49 ee 49 ee 49 ee 49 0d 01 0c fe 00 02 00 01 00 03 05 32
<- dd 1f

-> 01 03 d0 00 00 26 fc d0
<- 01 03 4c 0c fe 0d 01 0d 00 0c fe ee 49 ee 49 ee 49 ee 49
<- ee 49 ee 49 ee 49 ee 49 ee 49 ee 49 ee 49 ee 49 ee 49 ee 49
<- ee 49 ee 49 ee 49 ee 49 ee 49 ee 49 ee 49 ee 49 ee 49 ee 49
<- ee 49 ee 49 ee 49 ee 49 0d 01 0c fe 00 02 00 01 00 03 05 32
<- dd 1f

-> 01 03 d0 26 00 19 5d 0b
<- 01 03 32 02 44 00 00 00 00 00 00 00 00 00 00 02 58 00 00
<- 00 00 02 4e 02 58 02 44 00 00 00 00 00 64 00 64 30 d3 30 d4
<- 30 d4 00 06 00 00 00 00 00 00 00 00 00 00 64 4c

02   = 2
58   = 88
0258 = 600
6C   = 108
026C = 620
6C   = 108
026C = 620
6C   = 108
026C = 620
58   = 88
0258 = 600
64   = 100 (SOC?)
30D3 = 12499 => Ah
30D4 = 12500 => Max Ah
30D4 = 12500 => Max Ah again?
06   = 6 -> Charge cycles?

0258 = 600      22
0244 = 580      20      - 20
0226 = 550      17      - 30

017C = 380       0      - 170
0000 =   0     -38      





-> 01 03 d1 15 00 0c 6d 37
<- 01 03 18 24 0c 00 00 02 a7 00 00 00 00 00 00 00 00 00 00
<- 00 00 00 00 00 00 00 00 bc 90

-> 01 03 d1 00 00 15 bd 39
<- 01 03 2a 00 00 00 00 00 00 00 00 00 00 0e 00 00 00 00 00
<- 00 00 00 00 00 00 00 00 00 00 00 00 00 00 00 00 00 00 01 00
<- 00 00 00 00 00 00 e8 5c

-> 01 03 23 1c 00 04 8e 4b
<- 01 03 08 00 04 00 01 00 06 00 0a 8d d1

-> 01 03 d2 00 00 01 bd 72
<- 01 03 02 00 00 b8 44

-> 01 03 d0 00 00 26 fc d0
<- 01 03 4c 0c fe 0d 01 0d 00 0c fe ee 49 ee 49 ee 49 ee 49
<- ee 49 ee 49 ee 49 ee 49 ee 49 ee 49 ee 49 ee 49 ee 49 ee 49
<- ee 49 ee 49 ee 49 ee 49 ee 49 ee 49 ee 49 ee 49 ee 49 ee 49
<- ee 49 ee 49 ee 49 ee 49 0d 01 0c fe 00 02 00 01 00 03 05 32
<- dd 1f

-> 01 03 d0 00 00 26 fc d0
<- 01 03 4c 0c fe 0d 01 0d 00 0c fe ee 49 ee 49 ee 49 ee 49
<- ee 49 ee 49 ee 49 ee 49 ee 49 ee 49 ee 49 ee 49 ee 49 ee 49
<- ee 49 ee 49 ee 49 ee 49 ee 49 ee 49 ee 49 ee 49 ee 49 ee 49
<- ee 49 ee 49 ee 49 ee 49 0d 01 0c fe 00 02 00 01 00 03 05 32
<- dd 1f

-> 01 03 d0 26 00 19 5d 0b
<- 01 03 32 02 44 00 00 00 00 00 00 00 00 00 00 02 58 00 00
<- 00 00 02 4e 02 58 02 44 00 00 00 00 00 64 00 64 30 d3 30 d4
<- 30 d4 00 06 00 00 00 00 00 00 00 00 00 00 64 4c

-> 01 03 d1 15 00 0c 6d 37
<- 01 03 18 24 0c 00 00 02 a7 00 00 00 00 00 00 00 00 00 00
<- 00 00 00 00 00 00 00 00 bc 90

-> 01 03 d1 00 00 15 bd 39
<- 01 03 2a 00 00 00 00 00 00 00 00 00 00 0e 00 00 00 00 00
<- 00 00 00 00 00 00 00 00 00 00 00 00 00 00 00 00 00 00 01 00
<- 00 00 00 00 00 00 e8 5c

-> 01 03 23 1c 00 04 8e 4b
<- 01 03 08 00 04 00 01 00 06 00 0a 8d d1

-> 01 03 d2 00 00 01 bd 72
<- 01 03 02 00 00 b8 44

-> 01 03 d0 00 00 26 fc d0
<- 01 03 4c 0c fe 0d 01 0d 00 0c fe ee 49 ee 49 ee 49 ee 49
<- ee 49 ee 49 ee 49 ee 49 ee 49 ee 49 ee 49 ee 49 ee 49 ee 49
<- ee 49 ee 49 ee 49 ee 49 ee 49 ee 49 ee 49 ee 49 ee 49 ee 49
<- ee 49 ee 49 ee 49 ee 49 0d 01 0c fe 00 02 00 01 00 03 05 32
<- dd 1f

-> 01 03 d0 00 00 26 fc d0
<- 01 03 4c 0c fe 0d 01 0d 00 0c fe ee 49 ee 49 ee 49 ee 49
<- ee 49 ee 49 ee 49 ee 49 ee 49 ee 49 ee 49 ee 49 ee 49 ee 49
<- ee 49 ee 49 ee 49 ee 49 ee 49 ee 49 ee 49 ee 49 ee 49 ee 49
<- ee 49 ee 49 ee 49 ee 49 0d 01 0c fe 00 02 00 01 00 03 05 32
<- dd 1f

-> 01 03 d0 26 00 19 5d 0b
<- 01 03 32 02 44 00 00 00 00 00 00 00 00 00 00 02 58 00 00
<- 00 00 02 4e 02 58 02 44 00 00 00 00 00 64 00 64 30 d3 30 d4
<- 30 d4 00 06 00 00 00 00 00 00 00 00 00 00 64 4c

-> 01 03 d1 15 00 0c 6d 37
<- 01 03 18 24 0c 00 00 02 a7 00 00 00 00 00 00 00 00 00 00
<- 00 00 00 00 00 00 00 00 bc 90

-> 01 03 d1 00 00 15 bd 39
<- 01 03 2a 00 00 00 00 00 00 00 00 00 00 0e 00 00 00 00 00
<- 00 00 00 00 00 00 00 00 00 00 00 00 00 00 00 00 00 00 01 00
<- 00 00 00 00 00 00 e8 5c

-> 01 03 23 1c 00 04 8e 4b
<- 01 03 08 00 04 00 01 00 06 00 0a 8d d1

-> 01 03 d2 00 00 01 bd 72
<- 01 03 02 00 00 b8 44

-> 01 03 d0 00 00 26 fc d0
<- 01 03 4c 0c fe 0d 01 0d 00 0c fe ee 49 ee 49 ee 49 ee 49
<- ee 49 ee 49 ee 49 ee 49 ee 49 ee 49 ee 49 ee 49 ee 49 ee 49
<- ee 49 ee 49 ee 49 ee 49 ee 49 ee 49 ee 49 ee 49 ee 49 ee 49
<- ee 49 ee 49 ee 49 ee 49 0d 01 0c fe 00 02 00 01 00 03 05 32
<- dd 1f

-> 01 03 d0 00 00 26 fc d0
<- 01 03 4c 0c fe 0d 01 0d 00 0c fe ee 49 ee 49 ee 49 ee 49
<- ee 49 ee 49 ee 49 ee 49 ee 49 ee 49 ee 49 ee 49 ee 49 ee 49
<- ee 49 ee 49 ee 49 ee 49 ee 49 ee 49 ee 49 ee 49 ee 49 ee 49
<- ee 49 ee 49 ee 49 ee 49 0d 01 0c fe 00 02 00 01 00 03 05 32
<- dd 1f

-> 01 03 d0 26 00 19 5d 0b
<- 01 03 32 02 44 00 00 00 00 00 00 00 00 00 00 02 58 00 00
<- 00 00 02 4e 02 58 02 44 00 00 00 00 00 64 00 64 30 d3 30 d4
<- 30 d4 00 06 00 00 00 00 00 00 00 00 00 00 64 4c

-> 01 03 d1 15 00 0c 6d 37
<- 01 03 18 24 0c 00 00 02 a7 00 00 00 00 00 00 00 00 00 00
<- 00 00 00 00 00 00 00 00 bc 90

-> 01 03 d1 00 00 15 bd 39
<- 01 03 2a 00 00 00 00 00 00 00 00 00 00 0e 00 00 00 00 00
<- 00 00 00 00 00 00 00 00 00 00 00 00 00 00 00 00 00 00 01 00
<- 00 00 00 00 00 00 e8 5c

-> 01 03 23 1c 00 04 8e 4b
<- 01 03 08 00 04 00 01 00 06 00 0a 8d d1

-> 01 03 d2 00 00 01 bd 72
<- 01 03 02 00 00 b8 44

-> 01 03 d0 00 00 26 fc d0
<- 01 03 4c 0c fe 0d 01 0d 00 0c fe ee 49 ee 49 ee 49 ee 49
<- ee 49 ee 49 ee 49 ee 49 ee 49 ee 49 ee 49 ee 49 ee 49 ee 49
<- ee 49 ee 49 ee 49 ee 49 ee 49 ee 49 ee 49 ee 49 ee 49 ee 49
<- ee 49 ee 49 ee 49 ee 49 0d 01 0c fe 00 02 00 01 00 03 05 32
<- dd 1f

-> 01 03 d0 00 00 26 fc d0
<- 01 03 4c 0c fe 0d 01 0d 00 0c fe ee 49 ee 49 ee 49 ee 49
<- ee 49 ee 49 ee 49 ee 49 ee 49 ee 49 ee 49 ee 49 ee 49 ee 49
<- ee 49 ee 49 ee 49 ee 49 ee 49 ee 49 ee 49 ee 49 ee 49 ee 49
<- ee 49 ee 49 ee 49 ee 49 0d 01 0c fe 00 02 00 01 00 03 05 32
<- dd 1f

-> 01 03 d0 26 00 19 5d 0b
<- 01 03 32 02 44 00 00 00 00 00 00 00 00 00 00 02 58 00 00
<- 00 00 02 4e 02 58 02 44 00 00 00 00 00 64 00 64 30 d3 30 d4
<- 30 d4 00 06 00 00 00 00 00 00 00 00 00 00 64 4c

-> 01 03 d1 15 00 0c 6d 37
<- 01 03 18 24 0c 00 00 02 a7 00 00 00 00 00 00 00 00 00 00
<- 00 00 00 00 00 00 00 00 bc 90

-> 01 03 d1 00 00 15 bd 39
<- 01 03 2a 00 00 00 00 00 00 00 00 00 00 0e 00 00 00 00 00
<- 00 00 00 00 00 00 00 00 00 00 00 00 00 00 00 00 00 00 01 00
<- 00 00 00 00 00 00 e8 5c

-> 01 03 23 1c 00 04 8e 4b
<- 01 03 08 00 04 00 01 00 06 00 0a 8d d1

-> 01 03 d2 00 00 01 bd 72
<- 01 03 02 00 00 b8 44

-> 01 03 d0 00 00 26 fc d0
<- 01 03 4c 0c fe 0d 01 0c ff 0c fe ee 49 ee 49 ee 49 ee 49
<- ee 49 ee 49 ee 49 ee 49 ee 49 ee 49 ee 49 ee 49 ee 49 ee 49
<- ee 49 ee 49 ee 49 ee 49 ee 49 ee 49 ee 49 ee 49 ee 49 ee 49
<- ee 49 ee 49 ee 49 ee 49 0d 01 0c fe 00 02 00 01 00 03 05 32
<- 6c db

-> 01 03 d0 00 00 26 fc d0
<- 01 03 4c 0c fe 0d 01 0d 00 0c fe ee 49 ee 49 ee 49 ee 49
<- ee 49 ee 49 ee 49 ee 49 ee 49 ee 49 ee 49 ee 49 ee 49 ee 49
<- ee 49 ee 49 ee 49 ee 49 ee 49 ee 49 ee 49 ee 49 ee 49 ee 49
<- ee 49 ee 49 ee 49 ee 49 0d 01 0c fe 00 02 00 01 00 03 05 32
<- dd 1f

-> 01 03 d0 26 00 19 5d 0b
<- 01 03 32 02 44 00 00 00 00 00 00 00 00 00 00 02 58 00 00
<- 00 00 02 4e 02 58 02 44 00 00 00 00 00 64 00 64 30 d3 30 d4
<- 30 d4 00 06 00 00 00 00 00 00 00 00 00 00 64 4c

-> 01 03 d1 15 00 0c 6d 37
<- 01 03 18 24 0c 00 00 02 a7 00 00 00 00 00 00 00 00 00 00
<- 00 00 00 00 00 00 00 00 bc 90

-> 01 03 d1 00 00 15 bd 39
<- 01 03 2a 00 00 00 00 00 00 00 00 00 00 0e 00 00 00 00 00
<- 00 00 00 00 00 00 00 00 00 00 00 00 00 00 00 00 00 00 01 00
<- 00 00 00 00 00 00 e8 5c

-> 01 03 23 1c 00 04 8e 4b
<- 01 03 08 00 04 00 01 00 06 00 0a 8d d1

-> 01 03 d2 00 00 01 bd 72
<- 01 03 02 00 00 b8 44

-> 01 03 d0 00 00 26 fc d0
<- 01 03 4c 0c fe 0d 01 0d 00 0c fe ee 49 ee 49 ee 49 ee 49
<- ee 49 ee 49 ee 49 ee 49 ee 49 ee 49 ee 49 ee 49 ee 49 ee 49
<- ee 49 ee 49 ee 49 ee 49 ee 49 ee 49 ee 49 ee 49 ee 49 ee 49
<- ee 49 ee 49 ee 49 ee 49 0d 01 0c fe 00 02 00 01 00 03 05 32
<- dd 1f

-> 01 03 d0 00 00 26 fc d0
<- 01 03 4c 0c fe 0d 01 0d 00 0c fe ee 49 ee 49 ee 49 ee 49
<- ee 49 ee 49 ee 49 ee 49 ee 49 ee 49 ee 49 ee 49 ee 49 ee 49
<- ee 49 ee 49 ee 49 ee 49 ee 49 ee 49 ee 49 ee 49 ee 49 ee 49
<- ee 49 ee 49 ee 49 ee 49 0d 01 0c fe 00 02 00 01 00 03 05 32
<- dd 1f

-> 01 03 d0 26 00 19 5d 0b
<- 01 03 32 02 44 00 00 00 00 00 00 00 00 00 00 02 58 00 00
<- 00 00 02 4e 02 58 02 44 00 00 00 00 00 64 00 64 30 d3 30 d4
<- 30 d4 00 06 00 00 00 00 00 00 00 00 00 00 64 4c

-> 01 03 d1 15 00 0c 6d 37
<- 01 03 18 24 0c 00 00 02 a7 00 00 00 00 00 00 00 00 00 00
<- 00 00 00 00 00 00 00 00 bc 90

-> 01 03 d1 00 00 15 bd 39
<- 01 03 2a 00 00 00 00 00 00 00 00 00 00 0e 00 00 00 00 00
<- 00 00 00 00 00 00 00 00 00 00 00 00 00 00 00 00 00 00 01 00
<- 00 00 00 00 00 00 e8 5c

-> 01 03 23 1c 00 04 8e 4b
<- 01 03 08 00 04 00 01 00 06 00 0a 8d d1

-> 01 03 d2 00 00 01 bd 72
<- 01 03 02 00 00 b8 44

-> 01 03 d0 00 00 26 fc d0
<- 01 03 4c 0c fe 0d 01 0d 00 0c fe ee 49 ee 49 ee 49 ee 49
<- ee 49 ee 49 ee 49 ee 49 ee 49 ee 49 ee 49 ee 49 ee 49 ee 49
<- ee 49 ee 49 ee 49 ee 49 ee 49 ee 49 ee 49 ee 49 ee 49 ee 49
<- ee 49 ee 49 ee 49 ee 49 0d 01 0c fe 00 02 00 01 00 03 05 32
<- dd 1f

-> 01 03 d0 00 00 26 fc d0
<- 01 03 4c 0c fe 0d 01 0d 00 0c fe ee 49 ee 49 ee 49 ee 49
<- ee 49 ee 49 ee 49 ee 49 ee 49 ee 49 ee 49 ee 49 ee 49 ee 49
<- ee 49 ee 49 ee 49 ee 49 ee 49 ee 49 ee 49 ee 49 ee 49 ee 49
<- ee 49 ee 49 ee 49 ee 49 0d 01 0c fe 00 02 00 01 00 03 05 32
<- dd 1f

-> 01 03 d0 26 00 19 5d 0b
<- 01 03 32 02 44 00 00 00 00 00 00 00 00 00 00 02 58 00 00
<- 00 00 02 4e 02 58 02 44 00 00 00 00 00 64 00 64 30 d3 30 d4
<- 30 d4 00 06 00 00 00 00 00 00 00 00 00 00 64 4c

-> 01 03 d1 15 00 0c 6d 37
<- 01 03 18 24 0c 00 00 02 a7 00 00 00 00 00 00 00 00 00 00
<- 00 00 00 00 00 00 00 00 bc 90

-> 01 03 d1 00 00 15 bd 39
<- 01 03 2a 00 00 00 00 00 00 00 00 00 00 0e 00 00 00 00 00
<- 00 00 00 00 00 00 00 00 00 00 00 00 00 00 00 00 00 00 01 00
<- 00 00 00 00 00 00 e8 5c

-> 01 03 23 1c 00 04 8e 4b
<- 01 03 08 00 04 00 01 00 06 00 0a 8d d1

-> 01 03 d2 00 00 01 bd 72
<- 01 03 02 00 00 b8 44

-> 01 03 d0 00 00 26 fc d0
<- 01 03 4c 0c fe 0d 01 0d 00 0c fe ee 49 ee 49 ee 49 ee 49
<- ee 49 ee 49 ee 49 ee 49 ee 49 ee 49 ee 49 ee 49 ee 49 ee 49
<- ee 49 ee 49 ee 49 ee 49 ee 49 ee 49 ee 49 ee 49 ee 49 ee 49
<- ee 49 ee 49 ee 49 ee 49 0d 01 0c fe 00 02 00 01 00 03 05 32
<- dd 1f

-> 01 03 d0 00 00 26 fc d0
<- 01 03 4c 0c fe 0d 01 0d 00 0c fe ee 49 ee 49 ee 49 ee 49
<- ee 49 ee 49 ee 49 ee 49 ee 49 ee 49 ee 49 ee 49 ee 49 ee 49
<- ee 49 ee 49 ee 49 ee 49 ee 49 ee 49 ee 49 ee 49 ee 49 ee 49
<- ee 49 ee 49 ee 49 ee 49 0d 01 0c fe 00 02 00 01 00 03 05 32
<- dd 1f

-> 01 03 d0 26 00 19 5d 0b
<- 01 03 32 02 44 00 00 00 00 00 00 00 00 00 00 02 58 00 00
<- 00 00 02 4e 02 58 02 44 00 00 00 00 00 64 00 64 30 d3 30 d4
<- 30 d4 00 06 00 00 00 00 00 00 00 00 00 00 64 4c

-> 01 03 d1 15 00 0c 6d 37
<- 01 03 18 24 0c 00 00 02 a7 00 00 00 00 00 00 00 00 00 00
<- 00 00 00 00 00 00 00 00 bc 90

-> 01 03 d1 00 00 15 bd 39
<- 01 03 2a 00 00 00 00 00 00 00 00 00 00 0e 00 00 00 00 00
<- 00 00 00 00 00 00 00 00 00 00 00 00 00 00 00 00 00 00 01 00
<- 00 00 00 00 00 00 e8 5c

-> 01 03 23 1c 00 04 8e 4b
<- 01 03 08 00 04 00 01 00 06 00 0a 8d d1

-> 01 03 d2 00 00 01 bd 72
<- 01 03 02 00 00 b8 44

-> 01 03 d0 00 00 26 fc d0
<- 01 03 4c 0c fe 0d 01 0d 00 0c fe ee 49 ee 49 ee 49 ee 49
<- ee 49 ee 49 ee 49 ee 49 ee 49 ee 49 ee 49 ee 49 ee 49 ee 49
<- ee 49 ee 49 ee 49 ee 49 ee 49 ee 49 ee 49 ee 49 ee 49 ee 49
<- ee 49 ee 49 ee 49 ee 49 0d 01 0c fe 00 02 00 01 00 03 05 32
<- dd 1f

-> 01 03 d0 00 00 26 fc d0
<- 01 03 4c 0c fe 0d 01 0d 00 0c fe ee 49 ee 49 ee 49 ee 49
<- ee 49 ee 49 ee 49 ee 49 ee 49 ee 49 ee 49 ee 49 ee 49 ee 49
<- ee 49 ee 49 ee 49 ee 49 ee 49 ee 49 ee 49 ee 49 ee 49 ee 49
<- ee 49 ee 49 ee 49 ee 49 0d 01 0c fe 00 02 00 01 00 03 05 32
<- dd 1f

-> 01 03 d0 26 00 19 5d 0b
<- 01 03 32 02 44 00 00 00 00 00 00 00 00 00 00 02 58 00 00
<- 00 00 02 4e 02 58 02 44 00 00 00 00 00 64 00 64 30 d3 30 d4
<- 30 d4 00 06 00 00 00 00 00 00 00 00 00 00 64 4c

-> 01 03 d1 15 00 0c 6d 37
<- 01 03 18 24 0c 00 00 02 a7 00 00 00 00 00 00 00 00 00 00
<- 00 00 00 00 00 00 00 00 bc 90

-> 01 03 d1 00 00 15 bd 39
<- 01 03 2a 00 00 00 00 00 00 00 00 00 00 0e 00 00 00 00 00
<- 00 00 00 00 00 00 00 00 00 00 00 00 00 00 00 00 00 00 01 00
<- 00 00 00 00 00 00 e8 5c

-> 01 03 23 1c 00 04 8e 4b
<- 01 03 08 00 04 00 01 00 06 00 0a 8d d1

-> 01 03 d1 00 00 15 bd 39
<- 01 03 2a 00 00 00 00 00 00 00 00 00 00 0e 00 00 00 00 00
<- 00 00 00 00 00 00 00 00 00 00 00 00 00 00 00 00 00 00 01 00
<- 00 00 00 00 00 00 e8 5c

-> 01 03 23 1c 00 04 8e 4b
<- 01 03 08 00 04 00 01 00 06 00 0a 8d d1

-> 01 03 d2 00 00 01 bd 72
<- 01 03 02 00 00 b8 44

-> 01 03 d0 00 00 26 fc d0
<- 01 03 4c 0c fe 0d 00 0c ff 0c fd ee 49 ee 49 ee 49 ee 49
<- ee 49 ee 49 ee 49 ee 49 ee 49 ee 49 ee 49 ee 49 ee 49 ee 49
<- ee 49 ee 49 ee 49 ee 49 ee 49 ee 49 ee 49 ee 49 ee 49 ee 49
<- ee 49 ee 49 ee 49 ee 49 0d 00 0c fd 00 02 00 04 00 03 05 32
<- f3 35

-> 01 03 d0 00 00 26 fc d0
<- 01 03 4c 0c fe 0d 00 0c ff 0c fd ee 49 ee 49 ee 49 ee 49
<- ee 49 ee 49 ee 49 ee 49 ee 49 ee 49 ee 49 ee 49 ee 49 ee 49
<- ee 49 ee 49 ee 49 ee 49 ee 49 ee 49 ee 49 ee 49 ee 49 ee 49
<- ee 49 ee 49 ee 49 ee 49 0d 00 0c fd 00 02 00 04 00 03 05 32
<- f3 35

-> 01 03 d0 26 00 19 5d 0b
<- 01 03 32 02 26 00 00 00 00 00 00 00 00 00 00 02 3a 00 00
<- 00 00 02 26 02 3a 02 26 00 00 00 00 00 64 00 64 30 d3 30 d4
<- 30 d4 00 06 00 00 00 00 00 00 00 00 00 00 c4 c0

-> 01 03 d1 15 00 0c 6d 37
<- 01 03 18 24 0c 00 00 02 a7 00 00 00 00 00 00 00 00 00 00
<- 00 00 00 00 00 00 00 00 bc 90

-> 01 03 d1 00 00 15 bd 39
<- 01 03 2a 00 00 00 00 00 00 00 00 00 00 0e 00 00 00 00 00
<- 00 00 00 00 00 00 00 00 00 00 00 00 00 00 00 00 00 00 01 00
<- 00 00 00 00 00 00 e8 5c

-> 01 03 23 1c 00 04 8e 4b
<- 01 03 08 00 04 00 01 00 06 00 0a 8d d1

-> 01 03 d2 00 00 01 bd 72
<- 01 03 02 00 00 b8 44

-> 01 03 d0 00 00 26 fc d0
<- 01 03 4c 0c fe 0d 00 0c ff 0c fd ee 49 ee 49 ee 49 ee 49
<- ee 49 ee 49 ee 49 ee 49 ee 49 ee 49 ee 49 ee 49 ee 49 ee 49
<- ee 49 ee 49 ee 49 ee 49 ee 49 ee 49 ee 49 ee 49 ee 49 ee 49
<- ee 49 ee 49 ee 49 ee 49 0d 00 0c fd 00 02 00 04 00 03 05 32
<- f3 35

-> 01 03 d0 00 00 26 fc d0
<- 01 03 4c 0c fe 0d 00 0c ff 0c fd ee 49 ee 49 ee 49 ee 49
<- ee 49 ee 49 ee 49 ee 49 ee 49 ee 49 ee 49 ee 49 ee 49 ee 49
<- ee 49 ee 49 ee 49 ee 49 ee 49 ee 49 ee 49 ee 49 ee 49 ee 49
<- ee 49 ee 49 ee 49 ee 49 0d 00 0c fd 00 02 00 04 00 03 05 32
<- f3 35

-> 01 03 d0 26 00 19 5d 0b
<- 01 03 32 02 26 00 00 00 00 00 00 00 00 00 00 02 3a 00 00
<- 00 00 02 26 02 3a 02 26 00 00 00 00 00 64 00 64 30 d3 30 d4
<- 30 d4 00 06 00 00 00 00 00 00 00 00 00 00 c4 c0

-> 01 03 d1 15 00 0c 6d 37
<- 01 03 18 24 0c 00 00 02 a7 00 00 00 00 00 00 00 00 00 00
<- 00 00 00 00 00 00 00 00 bc 90

-> 01 03 d1 00 00 15 bd 39
<- 01 03 2a 00 00 00 00 00 00 00 00 00 00 0e 00 00 00 00 00
<- 00 00 00 00 00 00 00 00 00 00 00 00 00 00 00 00 00 00 01 00
<- 00 00 00 00 00 00 e8 5c

-> 01 03 23 1c 00 04 8e 4b
<- 01 03 08 00 04 00 01 00 06 00 0a 8d d1

-> 01 03 d2 00 00 01 bd 72
<- 01 03 02 00 00 b8 44

-> 01 03 d0 00 00 26 fc d0
<- 01 03 4c 0c fe 0d 00 0c ff 0c fd ee 49 ee 49 ee 49 ee 49
<- ee 49 ee 49 ee 49 ee 49 ee 49 ee 49 ee 49 ee 49 ee 49 ee 49
<- ee 49 ee 49 ee 49 ee 49 ee 49 ee 49 ee 49 ee 49 ee 49 ee 49
<- ee 49 ee 49 ee 49 ee 49 0d 00 0c fd 00 02 00 04 00 03 05 32
<- f3 35

-> 01 03 d0 00 00 26 fc d0
<- 01 03 4c 0c fe 0d 00 0c ff 0c fd ee 49 ee 49 ee 49 ee 49
<- ee 49 ee 49 ee 49 ee 49 ee 49 ee 49 ee 49 ee 49 ee 49 ee 49
<- ee 49 ee 49 ee 49 ee 49 ee 49 ee 49 ee 49 ee 49 ee 49 ee 49
<- ee 49 ee 49 ee 49 ee 49 0d 00 0c fd 00 02 00 04 00 03 05 32
<- f3 35

-> 01 03 d0 26 00 19 5d 0b
<- 01 03 32 02 26 00 00 00 00 00 00 00 00 00 00 02 3a 00 00
<- 00 00 02 26 02 3a 02 26 00 00 00 00 00 64 00 64 30 d3 30 d4
<- 30 d4 00 06 00 00 00 00 00 00 00 00 00 00 c4 c0

-> 01 03 d1 15 00 0c 6d 37
<- 01 03 18 24 0c 00 00 02 a7 00 00 00 00 00 00 00 00 00 00
<- 00 00 00 00 00 00 00 00 bc 90

-> 01 03 d1 00 00 15 bd 39
<- 01 03 2a 00 00 00 00 00 00 00 00 00 00 0e 00 00 00 00 00
<- 00 00 00 00 00 00 00 00 00 00 00 00 00 00 00 00 00 00 01 00
<- 00 00 00 00 00 00 e8 5c

-> 01 03 23 1c 00 04 8e 4b
<- 01 03 08 00 04 00 01 00 06 00 0a 8d d1

-> 01 03 d2 00 00 01 bd 72
<- 01 03 02 00 00 b8 44

-> 01 03 d0 00 00 26 fc d0
<- 01 03 4c 0c fe 0d 00 0c ff 0c fd ee 49 ee 49 ee 49 ee 49
<- ee 49 ee 49 ee 49 ee 49 ee 49 ee 49 ee 49 ee 49 ee 49 ee 49
<- ee 49 ee 49 ee 49 ee 49 ee 49 ee 49 ee 49 ee 49 ee 49 ee 49
<- ee 49 ee 49 ee 49 ee 49 0d 00 0c fd 00 02 00 04 00 03 05 32
<- f3 35

-> 01 03 d0 00 00 26 fc d0
<- 01 03 4c 0c fe 0d 00 0c ff 0c fd ee 49 ee 49 ee 49 ee 49
<- ee 49 ee 49 ee 49 ee 49 ee 49 ee 49 ee 49 ee 49 ee 49 ee 49
<- ee 49 ee 49 ee 49 ee 49 ee 49 ee 49 ee 49 ee 49 ee 49 ee 49
<- ee 49 ee 49 ee 49 ee 49 0d 00 0c fd 00 02 00 04 00 03 05 32
<- f3 35

-> 01 03 d0 26 00 19 5d 0b
<- 01 03 32 02 26 00 00 00 00 00 00 00 00 00 00 02 3a 00 00
<- 00 00 02 26 02 3a 02 26 00 00 00 00 00 64 00 64 30 d3 30 d4
<- 30 d4 00 06 00 00 00 00 00 00 00 00 00 00 c4 c0

-> 01 03 d1 15 00 0c 6d 37
<- 01 03 18 24 0c 00 00 02 a7 00 00 00 00 00 00 00 00 00 00
<- 00 00 00 00 00 00 00 00 bc 90

-> 01 03 d1 00 00 15 bd 39
<- 01 03 2a 00 00 00 00 00 00 00 00 00 00 0e 00 00 00 00 00
<- 00 00 00 00 00 00 00 00 00 00 00 00 00 00 00 00 00 00 01 00
<- 00 00 00 00 00 00 e8 5c

-> 01 03 23 1c 00 04 8e 4b
<- 01 03 08 00 04 00 01 00 06 00 0a 8d d1

-> 01 03 d2 00 00 01 bd 72
<- 01 03 02 00 00 b8 44

-> 01 03 d0 00 00 26 fc d0
<- 01 03 4c 0c fe 0d 00 0c ff 0c fd ee 49 ee 49 ee 49 ee 49
<- ee 49 ee 49 ee 49 ee 49 ee 49 ee 49 ee 49 ee 49 ee 49 ee 49
<- ee 49 ee 49 ee 49 ee 49 ee 49 ee 49 ee 49 ee 49 ee 49 ee 49
<- ee 49 ee 49 ee 49 ee 49 0d 00 0c fd 00 02 00 04 00 03 05 32
<- f3 35

-> 01 03 d0 00 00 26 fc d0
<- 01 03 4c 0c fe 0d 00 0c ff 0c fd ee 49 ee 49 ee 49 ee 49
<- ee 49 ee 49 ee 49 ee 49 ee 49 ee 49 ee 49 ee 49 ee 49 ee 49
<- ee 49 ee 49 ee 49 ee 49 ee 49 ee 49 ee 49 ee 49 ee 49 ee 49
<- ee 49 ee 49 ee 49 ee 49 0d 00 0c fd 00 02 00 04 00 03 05 32
<- f3 35

-> 01 03 d0 26 00 19 5d 0b
<- 01 03 32 02 26 00 00 00 00 00 00 00 00 00 00 02 3a 00 00
<- 00 00 02 26 02 3a 02 26 00 00 00 00 00 64 00 64 30 d3 30 d4
<- 30 d4 00 06 00 00 00 00 00 00 00 00 00 00 c4 c0

-> 01 03 d1 15 00 0c 6d 37
<- 01 03 18 24 0c 00 00 02 a7 00 00 00 00 00 00 00 00 00 00
<- 00 00 00 00 00 00 00 00 bc 90

-> 01 03 d1 00 00 15 bd 39
<- 01 03 2a 00 00 00 00 00 00 00 00 00 00 0e 00 00 00 00 00
<- 00 00 00 00 00 00 00 00 00 00 00 00 00 00 00 00 00 00 01 00
<- 00 00 00 00 00 00 e8 5c

-> 01 03 23 1c 00 04 8e 4b
<- 01 03 08 00 04 00 01 00 06 00 0a 8d d1

-> 01 03 d2 00 00 01 bd 72
<- 01 03 02 00 00 b8 44

-> 01 03 d0 00 00 26 fc d0
<- 01 03 4c 0c fe 0d 00 0c ff 0c fd ee 49 ee 49 ee 49 ee 49
<- ee 49 ee 49 ee 49 ee 49 ee 49 ee 49 ee 49 ee 49 ee 49 ee 49
<- ee 49 ee 49 ee 49 ee 49 ee 49 ee 49 ee 49 ee 49 ee 49 ee 49
<- ee 49 ee 49 ee 49 ee 49 0d 00 0c fd 00 02 00 04 00 03 05 32
<- f3 35

-> 01 03 d0 00 00 26 fc d0
<- 01 03 4c 0c fe 0d 00 0c ff 0c fd ee 49 ee 49 ee 49 ee 49
<- ee 49 ee 49 ee 49 ee 49 ee 49 ee 49 ee 49 ee 49 ee 49 ee 49
<- ee 49 ee 49 ee 49 ee 49 ee 49 ee 49 ee 49 ee 49 ee 49 ee 49
<- f3 35

-> 01 03 d0 26 00 19 5d 0b
<- 01 03 32 02 26 00 00 00 00 00 00 00 00 00 00 02 3a 00 00
<- 00 00 02 26 02 3a 02 26 00 00 00 00 00 64 00 64 30 d3 30 d4
<- 30 d4 00 06 00 00 00 00 00 00 00 00 00 00 c4 c0

-> 01 03 d1 15 00 0c 6d 37
<- 01 03 18 24 0c 00 00 02 a7 00 00 00 00 00 00 00 00 00 00
<- 00 00 00 00 00 00 00 00 bc 90

-> 01 03 d1 00 00 15 bd 39
<- 01 03 2a 00 00 00 00 00 00 00 00 00 00 0e 00 00 00 00 00
<- 00 00 00 00 00 00 00 00 00 00 00 00 00 00 00 00 00 00 01 00
<- 00 00 00 00 00 00 e8 5c

-> 01 03 23 1c 00 04 8e 4b
<- 01 03 08 00 04 00 01 00 06 00 0a 8d d1

-> 01 03 d2 00 00 01 bd 72
<- 01 03 02 00 00 b8 44

-> 01 03 d0 00 00 26 fc d0
<- 01 03 4c 0c fe 0d 01 0c ff 0c fd ee 49 ee 49 ee 49 ee 49
<- ee 49 ee 49 ee 49 ee 49 ee 49 ee 49 ee 49 ee 49 ee 49 ee 49
<- ee 49 ee 49 ee 49 ee 49 ee 49 ee 49 ee 49 ee 49 ee 49 ee 49
<- ee 49 ee 49 ee 49 ee 49 0d 01 0c fd 00 02 00 04 00 04 05 32
<- 14 d9

-> 01 03 d0 00 00 26 fc d0
<- 01 03 4c 0c fe 0d 00 0c ff 0c fd ee 49 ee 49 ee 49 ee 49
<- ee 49 ee 49 ee 49 ee 49 ee 49 ee 49 ee 49 ee 49 ee 49 ee 49
<- ee 49 ee 49 ee 49 ee 49 ee 49 ee 49 ee 49 ee 49 ee 49 ee 49
<- ee 49 ee 49 ee 49 ee 49 0d 00 0c fd 00 02 00 04 00 03 05 32
<- f3 35

-> 01 03 d0 26 00 19 5d 0b
<- 01 03 32 02 26 00 00 00 00 00 00 00 00 00 00 02 3a 00 00
<- 00 00 02 26 02 3a 02 26 00 00 00 00 00 64 00 64 30 d3 30 d4
<- 30 d4 00 06 00 00 00 00 00 00 00 00 00 00 c4 c0

-> 01 03 d1 15 00 0c 6d 37
<- 01 03 18 24 0c 00 00 02 a7 00 00 00 00 00 00 00 00 00 00
<- 00 00 00 00 00 00 00 00 bc 90

-> 01 03 d1 00 00 15 bd 39
<- 01 03 2a 00 00 00 00 00 00 00 00 00 00 0e 00 00 00 00 00
<- 00 00 00 00 00 00 00 00 00 00 00 00 00 00 00 00 00 00 01 00
<- 00 00 00 00 00 00 e8 5c

-> 01 03 23 1c 00 04 8e 4b
<- 01 03 08 00 04 00 01 00 06 00 0a 8d d1

-> 01 03 d2 00 00 01 bd 72
<- 01 03 02 00 00 b8 44

-> 01 03 d0 00 00 26 fc d0
<- 01 03 4c 0c fe 0d 00 0c ff 0c fd ee 49 ee 49 ee 49 ee 49
<- ee 49 ee 49 ee 49 ee 49 ee 49 ee 49 ee 49 ee 49 ee 49 ee 49
<- ee 49 ee 49 ee 49 ee 49 ee 49 ee 49 ee 49 ee 49 ee 49 ee 49
<- ee 49 ee 49 ee 49 ee 49 0d 00 0c fd 00 02 00 04 00 03 05 32
<- f3 35

-> 01 03 d0 00 00 26 fc d0
<- 01 03 4c 0c fe 0d 00 0c ff 0c fd ee 49 ee 49 ee 49 ee 49
<- ee 49 ee 49 ee 49 ee 49 ee 49 ee 49 ee 49 ee 49 ee 49 ee 49
<- ee 49 ee 49 ee 49 ee 49 ee 49 ee 49 ee 49 ee 49 ee 49 ee 49
<- ee 49 ee 49 ee 49 ee 49 0d 00 0c fd 00 02 00 04 00 03 05 32
<- f3 35

-> 01 03 d0 26 00 19 5d 0b
<- 01 03 32 02 26 00 00 00 00 00 00 00 00 00 00 02 3a 00 00
<- 00 00 02 26 02 3a 02 26 00 00 00 00 00 64 00 64 30 d3 30 d4
<- 30 d4 00 06 00 00 00 00 00 00 00 00 00 00 c4 c0

-> 01 03 d1 15 00 0c 6d 37
<- 01 03 18 24 0c 00 00 02 a7 00 00 00 00 00 00 00 00 00 00
<- 00 00 00 00 00 00 00 00 bc 90

-> 01 03 d1 00 00 15 bd 39
<- 01 03 2a 00 00 00 00 00 00 00 00 00 00 0e 00 00 00 00 00
<- 00 00 00 00 00 00 00 00 00 00 00 00 00 00 00 00 00 00 01 00
<- 00 00 00 00 00 00 e8 5c

-> 01 03 23 1c 00 04 8e 4b
<- 01 03 08 00 04 00 01 00 06 00 0a 8d d1

-> 01 03 d2 00 00 01 bd 72
<- 01 03 02 00 00 b8 44

-> 01 03 d0 00 00 26 fc d0
<- 01 03 4c 0c fe 0d 00 0c ff 0c fd ee 49 ee 49 ee 49 ee 49
<- ee 49 ee 49 ee 49 ee 49 ee 49 ee 49 ee 49 ee 49 ee 49 ee 49
<- ee 49 ee 49 ee 49 ee 49 ee 49 ee 49 ee 49 ee 49 ee 49 ee 49
<- ee 49 ee 49 ee 49 ee 49 0d 00 0c fd 00 02 00 04 00 03 05 32
<- f3 35

-> 01 03 d0 00 00 26 fc d0
<- 01 03 4c 0c fe 0d 00 0c ff 0c fd ee 49 ee 49 ee 49 ee 49
<- ee 49 ee 49 ee 49 ee 49 ee 49 ee 49 ee 49 ee 49 ee 49 ee 49
<- ee 49 ee 49 ee 49 ee 49 ee 49 ee 49 ee 49 ee 49 ee 49 ee 49
<- ee 49 ee 49 ee 49 ee 49 0d 00 0c fd 00 02 00 04 00 03 05 32
<- f3 35

-> 01 03 d0 26 00 19 5d 0b
<- 01 03 32 02 26 00 00 00 00 00 00 00 00 00 00 02 3a 00 00
<- 00 00 02 26 02 3a 02 26 00 00 00 00 00 64 00 64 30 d3 30 d4
<- 30 d4 00 06 00 00 00 00 00 00 00 00 00 00 c4 c0

-> 01 03 d1 15 00 0c 6d 37
<- 01 03 18 24 0c 00 00 02 a7 00 00 00 00 00 00 00 00 00 00
<- 00 00 00 00 00 00 00 00 bc 90

-> 01 03 d1 00 00 15 bd 39
<- 01 03 2a 00 00 00 00 00 00 00 00 00 00 0e 00 00 00 00 00
<- 00 00 00 00 00 00 00 00 00 00 00 00 00 00 00 00 00 00 01 00
<- 00 00 00 00 00 00 e8 5c

-> 01 03 d0 00 00 26 fc d0
<- 01 03 4c 0c fe 0d 00 0c ff 0c fd ee 49 ee 49 ee 49 ee 49
<- ee 49 ee 49 ee 49 ee 49 ee 49 ee 49 ee 49 ee 49 ee 49 ee 49
<- ee 49 ee 49 ee 49 ee 49 ee 49 ee 49 ee 49 ee 49 ee 49 ee 49
<- ee 49 ee 49 ee 49 ee 49 0d 00 0c fd 00 02 00 04 00 03 05 32
<- f3 35

-> 01 03 d0 26 00 19 5d 0b

-> 01 03 d1 15 00 0c 6d 37

-> 01 03 d1 00 00 15 bd 39
<- 01 03 32 02 26 00 00 00 00 00 00 00 00 00 00 02 3a 00 00
<- 00 00 02 26 02 3a 02 26 00 00 00 00 00 64 00 64 30 d3 30 d4
<- 30 d4 00 06 00 00 00 00 00 00 00 00 00 00 c4 c0

-> 01 03 d1 00 00 15 bd 39

-> 01 03 d2 00 00 01 bd 72

-> 01 03 d0 00 00 26 fc d0
<- 01 03 02 00 00 b8 44
<- 01 03 4c 0c fe 0d 00 0c ff 0c fd ee 49 ee 49 ee 49 ee 49
<- ee 49 ee 49 ee 49 ee 49 ee 49 ee 49 ee 49 ee 49 ee 49 ee 49
<- ee 49 ee 49 ee 49 ee 49 ee 49 ee 49 ee 49 ee 49 ee 49 ee 49
<- ee 49 ee 49 ee 49 ee 49 0d 00 0c fd 00 02 00 04 00 03 05 32
<- f3 35

-> 01 03 d0 00 00 26 fc d0

-> 01 03 d0 00 00 26 fc d0
<- 01 03 4c 0c fe 0d 00 0c ff 0c fd ee 49 ee 49 ee 49 ee 49
<- ee 49 ee 49 ee 49 ee 49 ee 49 ee 49 ee 49 ee 49 ee 49 ee 49
<- ee 49 ee 49 ee 49 ee 49 ee 49 ee 49 ee 49 ee 49 ee 49 ee 49
<- ee 49 ee 49 ee 49 ee 49 0d 00 0c fd 00 02 00 04 00 03 05 32
<- f3 35

-> 01 03 d1 00 00 15 bd 39

-> 01 03 23 1c 00 04 8e 4b

-> 01 03 d1 15 00 0c 6d 37
<- 01 03 08 00 04 00 01 00 06 00 0a 8d d1

-> 01 03 d0 00 00 26 fc d0

-> 01 03 23 1c 00 04 8e 4b
<- 01 03 08 00 04 00 01 00 06 00 0a 8d d1

-> 01 03 23 1c 00 04 8e 4b
<- 01 03 08 00 04 00 01 00 06 00 0a 8d d1

-> 01 03 d0 00 00 26 fc d0

-> 01 03 d0 00 00 26 fc d0

-> 01 03 d0 26 00 19 5d 0b
<- 01 03 4c 0c fe 0d 00 0c ff 0c fd ee 49 ee 49 ee 49 ee 49
<- ee 49 ee 49 ee 49 ee 49 ee 49 ee 49 ee 49 ee 49 ee 49 ee 49
<- ee 49 ee 49 ee 49 ee 49 ee 49 ee 49 ee 49 ee 49 ee 49 ee 49
<- ee 49 ee 49 ee 49 ee 49 0d 00 0c fd 00 02 00 04 00 03 05 32
<- f3 35

-> 01 03 d1 00 00 15 bd 39

-> 01 03 d1 00 00 15 bd 39
<- 01 03 2a 00 00 00 00 00 00 00 00 00 00 0e 00 00 00 00 00
<- 00 00 00 00 00 00 00 00 00 00 00 00 00 00 00 00 00 00 01 00
<- 00 00 00 00 00 00 e8 5c

-> 01 03 d0 00 00 26 fc d0

-> 01 03 d0 00 00 26 fc d0
<- 01 03 4c 0c fe 0d 00 0c ff 0c fd ee 49 ee 49 ee 49 ee 49
<- ee 49 ee 49 ee 49 ee 49 ee 49 ee 49 ee 49 ee 49 ee 49 ee 49
<- ee 49 ee 49 ee 49 ee 49 ee 49 ee 49 ee 49 ee 49 ee 49 ee 49
<- ee 49 ee 49 ee 49 ee 49 0d 00 0c fd 00 02 00 04 00 03 05 32
<- f3 35

-> 01 03 23 1c 00 04 8e 4b

-> 01 03 d2 00 00 01 bd 72

-> 01 03 d0 26 00 19 5d 0b
<- 01 03 02 00 00 b8 44

-> 01 03 d0 00 00 26 fc d0

-> 01 03 d1 15 00 0c 6d 37
<- 01 03 18 24 0c 00 00 02 a7 00 00 00 00 00 00 00 00 00 00
<- 00 00 00 00 00 00 00 00 bc 90

-> 01 03 d0 00 00 26 fc d0
<- 01 03 4c 0c fe 0d 00 0c ff 0c fd ee 49 ee 49 ee 49 ee 49
<- ee 49 ee 49 ee 49 ee 49 ee 49 ee 49 ee 49 ee 49 ee 49 ee 49
<- ee 49 ee 49 ee 49 ee 49 ee 49 ee 49 ee 49 ee 49 ee 49 ee 49
<- ee 49 ee 49 ee 49 ee 49 0d 00 0c fd 00 02 00 04 00 03 05 32
<- f3 35

-> 01 03 d2 00 00 01 bd 72

-> 01 03 d1 15 00 0c 6d 37
<- 01 03 02 00 00 b8 44

-> 01 03 d0 26 00 19 5d 0b

-> 01 03 d1 00 00 15 bd 39
<- 01 03 2a 00 00 00 00 00 00 00 00 00 00 0e 00 00 00 00 00
<- 00 00 00 00 00 00 00 00 00 00 00 00 00 00 00 00 00 00 01 00
<- 00 00 00 00 00 00 e8 5c

-> 01 03 d0 00 00 26 fc d0
<- 01 03 4c 0c fe 0d 00 0c ff 0c fd ee 49 ee 49 ee 49 ee 49
<- ee 49 ee 49 ee 49 ee 49 ee 49 ee 49 ee 49 ee 49 ee 49 ee 49
<- ee 49 ee 49 ee 49 ee 49 ee 49 ee 49 ee 49 ee 49 ee 49 ee 49
<- ee 49 ee 49 ee 49 ee 49 0d 00 0c fd 00 02 00 04 00 03 05 32
<- f3 35

-> 01 03 d1 15 00 0c 6d 37
<- 01 03 18 24 0c 00 00 02 a7 00 00 00 00 00 00 00 00 00 00
<- 00 00 00 00 00 00 00 00 bc 90

-> 01 03 d0 00 00 26 fc d0
<- 01 03 4c 0c fe 0d 00 0c ff 0c fd ee 49 ee 49 ee 49 ee 49
<- ee 49 ee 49 ee 49 ee 49 ee 49 ee 49 ee 49 ee 49 ee 49 ee 49
<- ee 49 ee 49 ee 49 ee 49 ee 49 ee 49 ee 49 ee 49 ee 49 ee 49
<- f3 35

-> 01 03 d1 00 00 15 bd 39

-> 01 03 d0 00 00 26 fc d0
<- 01 03 2a 00 00 00 00 00 00 00 00 00 00 0e 00 00 00 00 00
<- 00 00 00 00 00 00 00 00 00 00 00 00 00 00 00 00 00 00 01 00
<- 00 00 00 00 00 00 e8 5c

-> 01 03 d0 26 00 19 5d 0b

-> 01 03 d1 15 00 0c 6d 37

-> 01 03 d1 00 00 15 bd 39

-> 01 03 d1 15 00 0c 6d 37
<- 01 03 18 24 0c 00 00 02 a7 00 00 00 00 00 00 00 00 00 00
<- 00 00 00 00 00 00 00 00 bc 90

-> 01 03 23 1c 00 04 8e 4b

-> 01 03 d0 26 00 19 5d 0b

-> 01 03 d1 15 00 0c 6d 37
<- 01 03 08 00 04 00 01 00 06 00 0a 8d d1

-> 01 03 d0 00 00 26 fc d0

-> 01 03 23 1c 00 04 8e 4b
<- 01 03 4c 0c fe 0d 00 0c ff 0c fd ee 49 ee 49 ee 49 ee 49
<- ee 49 ee 49 ee 49 ee 49 ee 49 ee 49 ee 49 ee 49 ee 49 ee 49
<- ee 49 ee 49 ee 49 ee 49 ee 49 ee 49 ee 49 ee 49 ee 49 ee 49
<- ee 49 ee 49 ee 49 ee 49 0d 00 0c fd 00 02 00 04 00 03 05 32
<- f3 35

-> 01 03 d1 00 00 15 bd 39

-> 01 03 d0 26 00 19 5d 0b
<- 01 03 32 02 26 00 00 00 00 00 00 00 00 00 00 02 30 00 00
<- 00 00 02 26 02 30 02 26 00 00 00 00 00 64 00 64 30 d3 30 d4
<- 30 d4 00 06 00 00 00 00 00 00 00 00 00 00 90 6d



-> 01 03 d0 00 00 26 fc d0

-> 01 03 23 1c 00 04 8e 4b
<- 01 03 4c 0c fe 0d 00 0c ff 0c fd ee 49 ee 49 ee 49 ee 49
<- ee 49 ee 49 ee 49 ee 49 ee 49 ee 49 ee 49 ee 49 ee 49 ee 49
<- ee 49 ee 49 ee 49 ee 49 ee 49 ee 49 ee 49 ee 49 ee 49 ee 49
<- ee 49 ee 49 ee 49 ee 49 0d 00 0c fd 00 02 00 04 00 03 05 32
<- f3 35

-> 01 03 d1 15 00 0c 6d 37

-> 01 03 23 1c 00 04 8e 4b

-> 01 03 d0 00 00 26 fc d0
<- 01 03 08 00 04 00 01 00 06 00 0a 8d d1

-> 01 03 d0 00 00 26 fc d0

-> 01 03 23 1c 00 04 8e 4b
<- 01 03 08 00 04 00 01 00 06 00 0a 8d d1

-> 01 03 d1 00 00 15 bd 39

-> 01 03 d0 00 00 26 fc d0
<- 01 03 2a 00 00 00 00 00 00 00 00 00 00 0e 00 00 00 00 00
<- 00 00 00 00 00 00 00 00 00 00 00 00 00 00 00 00 00 00 01 00
<- 00 00 00 00 00 00 e8 5c

-> 01 03 d0 00 00 26 fc d0

-> 01 03 d1 00 00 15 bd 39
<- 01 03 4c 0c fe 0d 00 0c ff 0c fd ee 49 ee 49 ee 49 ee 49
<- ee 49 ee 49 ee 49 ee 49 ee 49 ee 49 ee 49 ee 49 ee 49 ee 49
<- ee 49 ee 49 ee 49 ee 49 ee 49 ee 49 ee 49 ee 49 ee 49 ee 49
<- ee 49 ee 49 ee 49 ee 49 0d 00 0c fd 00 02 00 04 00 03 05 32
<- f3 35

-> 01 03 d1 15 00 0c 6d 37

-> 01 03 23 1c 00 04 8e 4b

-> 01 03 d0 00 00 26 fc d0

-> 01 03 d0 00 00 26 fc d0
<- 01 03 18 24 0c 00 00 02 a7 00 00 00 00 00 00 00 00 00 00
<- 00 00 00 00 00 00 00 00 bc 90 01 83 02 c0 f1
<- 01 03 4c 0c fe 0d 00 0c ff 0c fd ee 49 ee 49 ee 49 ee 49
<- ee 49 ee 49 ee 49 ee 49 ee 49 ee 49 ee 49 ee 49 ee 49 ee 49
<- ee 49 ee 49 ee 49 ee 49 ee 49 ee 49 ee 49 ee 49 ee 49 ee 49
<- ee 49 ee 49 ee 49 ee 49 0d 00 0c fd 00 02 00 04 00 03 05 32
<- f3 35

-> 01 03 d2 00 00 01 bd 72

-> 01 03 d1 15 00 0c 6d 37
<- 01 03 02 00 00 b8 44

-> 01 03 d0 26 00 19 5d 0b
