
-> 01 03 23 1c 00 04 8e 4b
<- 01 03 08 00 04 00 01 00 06 00 0a 8d d1

-> 01 03 d2 00 00 01 bd 72
<- 01 03 02 00 00 b8 44

-> 01 03 d0 00 00 26 fc d0
<- 01 03 4c 0d 01 0d 05 0d 03 0d 01 ee 49 ee 49 ee 49 ee 49
<- ee 49 ee 49 ee 49 ee 49 ee 49 ee 49 ee 49 ee 49 ee 49 ee 49
<- ee 49 ee 49 ee 49 ee 49 ee 49 ee 49 ee 49 ee 49 ee 49 ee 49
<- ee 49 ee 49 ee 49 ee 49 0d 05 0d 01 00 02 00 01 00 04 05 33
<- 8a d0
0D01 = 3329 => Celle 1
0D05 = 3333 => Celle 2
0D03 = 3331 => Celle 3
0D01 = 3329 => Celle 4
...
0D05
0D01
0533 = 1331 => Spenning

-> 01 03 d0 26 00 19 5d 0b
<- 01 03 32 02 58 00 00 00 00 00 00 00 00 00 00 02 6c 00 00		18
<- 00 00 02 6c 02 6c 02 58 00 00 00 00 00 64 00 64 30 d3 30 d4
<- 30 d4 00 06 00 00 00 00 00 00 00 00 00 00 a1 c2

02   = 2
58   = 88
0258 = 600
6C   = 108
026C = 620
6C   = 108
026C = 620
6C   = 108
026C = 620
58   = 88
0258 = 600
64   = 100 (SOC?)
30D3 = 12499 => Ah
30D4 = 12500 => Max Ah
30D4 = 12500 => Max Ah again?
06   = 6 -> Charge cycles?


-> 01 03 d1 15 00 0c 6d 37
<- 01 03 18 24 0c 00 00 02 a7 00 00 00 00 00 00 00 00 00 00
<- 00 00 00 00 00 00 00 00 bc 90

-> 01 03 d1 00 00 15 bd 39
<- 01 03 2a 00 00 00 00 00 00 00 00 00 00 0e 00 00 00 00 00
<- 00 00 00 00 00 00 00 00 00 00 00 00 00 00 00 00 00 00 01 00
<- 00 00 00 00 00 00 e8 5c

-> 01 03 23 1c 00 04 8e 4b
<- 01 03 08 00 04 00 01 00 06 00 0a 8d d1

-> 01 03 d2 00 00 01 bd 72
<- 01 03 02 00 00 b8 44

-> 01 03 d0 00 00 26 fc d0
<- 01 03 4c 0d 01 0d 05 0d 03 0d 02 ee 49 ee 49 ee 49 ee 49
<- ee 49 ee 49 ee 49 ee 49 ee 49 ee 49 ee 49 ee 49 ee 49 ee 49
<- ee 49 ee 49 ee 49 ee 49 ee 49 ee 49 ee 49 ee 49 ee 49 ee 49
<- ee 49 ee 49 ee 49 ee 49 0d 05 0d 01 00 02 00 01 00 04 05 33
<- 9b e3

0D01 = 3329 => Celle 1
0D05 = 3333 => Celle 2
0D03 = 3331 => Celle 3
0D02 = 3330 => Celle 4
...
0D05
0D01
0533 = 1331 => Spenning

-> 01 03 d0 26 00 19 5d 0b
<- 01 03 32 02 58 00 00 00 00 00 00 00 00 00 00 02 62 00 00
<- 00 00 02 6c 02 62 02 58 00 00 00 00 00 64 00 64 30 d3 30 d4
<- 30 d4 00 06 00 00 00 00 00 00 00 00 00 00 83 a8

02   = 2
58   = 88
0258 = 600
62   = 98
0262 = 610
6C   = 108
026C = 620
62   = 98
0262 = 610
58   = 88
0258 = 600
64   = 100 (SOC?)
30D3 = 12499 => Ah
30D4 = 12500 => Max Ah
30D4 = 12500 => Max Ah again?
06   = 6 -> Charge cycles?


-> 01 03 d0 00 00 26 fc d0
<- 01 03 4c 0d 01 0d 05 0d 02 0d 01 ee 49 ee 49 ee 49 ee 49
<- ee 49 ee 49 ee 49 ee 49 ee 49 ee 49 ee 49 ee 49 ee 49 ee 49
<- ee 49 ee 49 ee 49 ee 49 ee 49 ee 49 ee 49 ee 49 ee 49 ee 49
<- ee 49 ee 49 ee 49 ee 49 0d 05 0d 01 00 02 00 01 00 04 05 33
<- 4e ec

0D01 = 3329 => Celle 1
0D05 = 3333 => Celle 2
0D02 = 3330 => Celle 3
0D01 = 3329 => Celle 4
...
0D05
0D01
0533 = 1331 => Spenning

-> 01 03 d0 26 00 19 5d 0b
<- 01 03 32 02 58 00 00 00 00 00 00 00 00 00 00 02 6c 00 00
<- 00 00 02 6c 02 6c 02 58 00 00 00 03 00 64 00 64 30 d3 30 d4
<- 30 d4 00 06 00 00 00 00 00 00 00 00 00 00 f5 27

02   = 2
58   = 88
0258 = 600
62   = 98
0262 = 610
6C   = 108
026C = 620
62   = 98
0262 = 610
58   = 88
0258 = 600
64   = 100 (SOC?)
30D3 = 12499 => Ah
30D4 = 12500 => Max Ah
30D4 = 12500 => Max Ah again?
06   = 6 -> Charge cycles?

-> 01 03 d0 26 00 19 5d 0b
<- 01 03 32 02 58 00 00 00 00 00 00 00 00 00 00 02 6c 00 00
<- 00 00 02 6c 02 6c 02 58 00 00 00 02 00 64 00 64 30 d3 30 d4
<- 30 d4 00 06 00 00 00 00 00 00 00 00 00 00 38 bb

02 som var 03 = forbruk?
0.3 A

-> 01 03 d1 15 00 0c 6d 37
<- 01 03 18 24 0c 00 00 02 a7 00 00 00 00 00 00 00 00 00 00
<- 00 00 00 00 00 00 00 00 bc 90

00F8 (HEX)= 248 (DEC). Output value 0~1650 corresponds to -40~125℃. Temperature=125-(-40)*248/1650-40=-15.2℃

-45 + 

= 18,99 = -45 + (0x5D9A * 175) / 0xFFFF (° C)



-> 01 03 d1 00 00 15 bd 39
<- 01 03 2a 00 00 00 00 00 00 00 00 00 00 0e 00 00 00 00 00
<- 00 00 00 00 00 00 00 00 00 00 00 00 00 00 00 00 00 00 01 00
<- 00 00 00 00 00 00 e8 5c

-> 01 03 23 1c 00 04 8e 4b
<- 01 03 08 00 04 00 01 00 06 00 0a 8d d1

-> 01 03 d2 00 00 01 bd 72
<- 01 03 02 00 00 b8 44







-> 01 03 d0 00 00 26 fc d0
<- 01 03 4c 0d 01 0d 05 0d 03 0d 01 ee 49 ee 49 ee 49 ee 49
<- ee 49 ee 49 ee 49 ee 49 ee 49 ee 49 ee 49 ee 49 ee 49 ee 49
<- ee 49 ee 49 ee 49 ee 49 ee 49 ee 49 ee 49 ee 49 ee 49 ee 49
<- ee 49 ee 49 ee 49 ee 49 0d 05 0d 01 00 02 00 01 00 04 05 33
<- 8a d0

-> 01 03 d0 00 00 26 fc d0
<- 01 03 4c 0d 01 0d 05 0d 03 0d 01 ee 49 ee 49 ee 49 ee 49
<- ee 49 ee 49 ee 49 ee 49 ee 49 ee 49 ee 49 ee 49 ee 49 ee 49
<- ee 49 ee 49 ee 49 ee 49 ee 49 ee 49 ee 49 ee 49 ee 49 ee 49
<- ee 49 ee 49 ee 49 ee 49 0d 05 0d 01 00 02 00 01 00 04 05 33
<- 8a d0

-> 01 03 d0 26 00 19 5d 0b
<- 01 03 32 02 58 00 00 00 00 00 00 00 00 00 00 02 6c 00 00
<- 00 00 02 6c 02 6c 02 58 00 00 00 00 00 64 00 64 30 d3 30 d4
<- 30 d4 00 06 00 00 00 00 00 00 00 00 00 00 a1 c2

-> 01 03 d1 15 00 0c 6d 37
<- 01 03 18 24 0c 00 00 02 a7 00 00 00 00 00 00 00 00 00 00
<- 00 00 00 00 00 00 00 00 bc 90

-> 01 03 d1 00 00 15 bd 39
<- 01 03 2a 00 00 00 00 00 00 00 00 00 00 0e 00 00 00 00 00
<- 00 00 00 00 00 00 00 00 00 00 00 00 00 00 00 00 00 00 01 00
<- 00 00 00 00 00 00 e8 5c

-> 01 03 23 1c 00 04 8e 4b
<- 01 03 08 00 04 00 01 00 06 00 0a 8d d1

-> 01 03 d2 00 00 01 bd 72
<- 01 03 02 00 00 b8 44

-> 01 03 d0 00 00 26 fc d0
<- 01 03 4c 0d 01 0d 05 0d 03 0d 01 ee 49 ee 49 ee 49 ee 49
<- ee 49 ee 49 ee 49 ee 49 ee 49 ee 49 ee 49 ee 49 ee 49 ee 49
<- ee 49 ee 49 ee 49 ee 49 ee 49 ee 49 ee 49 ee 49 ee 49 ee 49
<- ee 49 ee 49 ee 49 ee 49 0d 05 0d 01 00 02 00 01 00 04 05 33
<- 8a d0

-> 01 03 d0 00 00 26 fc d0
<- 01 03 4c 0d 01 0d 05 0d 03 0d 01 ee 49 ee 49 ee 49 ee 49
<- ee 49 ee 49 ee 49 ee 49 ee 49 ee 49 ee 49 ee 49 ee 49 ee 49
<- ee 49 ee 49 ee 49 ee 49 ee 49 ee 49 ee 49 ee 49 ee 49 ee 49
<- ee 49 ee 49 ee 49 ee 49 0d 05 0d 01 00 02 00 01 00 04 05 33
<- 8a d0

-> 01 03 d0 26 00 19 5d 0b
<- 01 03 32 02 58 00 00 00 00 00 00 00 00 00 00 02 6c 00 00
<- 00 00 02 6c 02 6c 02 58 00 00 00 00 00 64 00 64 30 d3 30 d4
<- 30 d4 00 06 00 00 00 00 00 00 00 00 00 00 a1 c2

-> 01 03 d1 15 00 0c 6d 37
<- 01 03 18 24 0c 00 00 02 a7 00 00 00 00 00 00 00 00 00 00
<- 00 00 00 00 00 00 00 00 bc 90

-> 01 03 d1 00 00 15 bd 39
<- 01 03 2a 00 00 00 00 00 00 00 00 00 00 0e 00 00 00 00 00
<- 00 00 00 00 00 00 00 00 00 00 00 00 00 00 00 00 00 00 01 00
<- 00 00 00 00 00 00 e8 5c

-> 01 03 23 1c 00 04 8e 4b
<- 01 03 08 00 04 00 01 00 06 00 0a 8d d1

-> 01 03 d2 00 00 01 bd 72
<- 01 03 02 00 00 b8 44

-> 01 03 d0 00 00 26 fc d0
<- 01 03 4c 0d 01 0d 05 0d 03 0d 01 ee 49 ee 49 ee 49 ee 49
<- ee 49 ee 49 ee 49 ee 49 ee 49 ee 49 ee 49 ee 49 ee 49 ee 49
<- ee 49 ee 49 ee 49 ee 49 ee 49 ee 49 ee 49 ee 49 ee 49 ee 49
<- ee 49 ee 49 ee 49 ee 49 0d 05 0d 01 00 02 00 01 00 04 05 33
<- 8a d0

-> 01 03 d0 00 00 26 fc d0
<- 01 03 4c 0d 01 0d 05 0d 03 0d 01 ee 49 ee 49 ee 49 ee 49
<- ee 49 ee 49 ee 49 ee 49 ee 49 ee 49 ee 49 ee 49 ee 49 ee 49
<- ee 49 ee 49 ee 49 ee 49 ee 49 ee 49 ee 49 ee 49 ee 49 ee 49
<- ee 49 ee 49 ee 49 ee 49 0d 05 0d 01 00 02 00 01 00 04 05 33
<- 8a d0

-> 01 03 d0 26 00 19 5d 0b
<- 01 03 32 02 58 00 00 00 00 00 00 00 00 00 00 02 6c 00 00
<- 00 00 02 6c 02 6c 02 58 00 00 00 00 00 64 00 64 30 d3 30 d4
<- 30 d4 00 06 00 00 00 00 00 00 00 00 00 00 a1 c2

-> 01 03 d1 15 00 0c 6d 37
<- 01 03 18 24 0c 00 00 02 a7 00 00 00 00 00 00 00 00 00 00
<- 00 00 00 00 00 00 00 00 bc 90

-> 01 03 d1 00 00 15 bd 39
<- 01 03 2a 00 00 00 00 00 00 00 00 00 00 0e 00 00 00 00 00
<- 00 00 00 00 00 00 00 00 00 00 00 00 00 00 00 00 00 00 01 00
<- 00 00 00 00 00 00 e8 5c

-> 01 03 23 1c 00 04 8e 4b
<- 01 03 08 00 04 00 01 00 06 00 0a 8d d1

-> 01 03 d2 00 00 01 bd 72
<- 01 03 02 00 00 b8 44

-> 01 03 d0 00 00 26 fc d0
<- 01 03 4c 0d 01 0d 05 0d 03 0d 01 ee 49 ee 49 ee 49 ee 49
<- ee 49 ee 49 ee 49 ee 49 ee 49 ee 49 ee 49 ee 49 ee 49 ee 49
<- ee 49 ee 49 ee 49 ee 49 ee 49 ee 49 ee 49 ee 49 ee 49 ee 49
<- ee 49 ee 49 ee 49 ee 49 0d 05 0d 01 00 02 00 01 00 04 05 33
<- 8a d0

-> 01 03 d0 00 00 26 fc d0
<- 01 03 4c 0d 01 0d 05 0d 03 0d 01 ee 49 ee 49 ee 49 ee 49
<- ee 49 ee 49 ee 49 ee 49 ee 49 ee 49 ee 49 ee 49 ee 49 ee 49
<- ee 49 ee 49 ee 49 ee 49 ee 49 ee 49 ee 49 ee 49 ee 49 ee 49
<- ee 49 ee 49 ee 49 ee 49 0d 05 0d 01 00 02 00 01 00 04 05 33
<- 8a d0

-> 01 03 d0 26 00 19 5d 0b
<- 01 03 32 02 58 00 00 00 00 00 00 00 00 00 00 02 6c 00 00
<- 00 00 02 6c 02 6c 02 58 00 00 00 00 00 64 00 64 30 d3 30 d4
<- 30 d4 00 06 00 00 00 00 00 00 00 00 00 00 a1 c2

-> 01 03 d1 15 00 0c 6d 37
<- 01 03 18 24 0c 00 00 02 a7 00 00 00 00 00 00 00 00 00 00
<- 00 00 00 00 00 00 00 00 bc 90

-> 01 03 d1 00 00 15 bd 39
<- 01 03 2a 00 00 00 00 00 00 00 00 00 00 0e 00 00 00 00 00
<- 00 00 00 00 00 00 00 00 00 00 00 00 00 00 00 00 00 00 01 00
<- 00 00 00 00 00 00 e8 5c

-> 01 03 23 1c 00 04 8e 4b
<- 01 03 08 00 04 00 01 00 06 00 0a 8d d1

-> 01 03 d2 00 00 01 bd 72
<- 01 03 02 00 00 b8 44

-> 01 03 d0 00 00 26 fc d0
<- 01 03 4c 0d 01 0d 05 0d 03 0d 01 ee 49 ee 49 ee 49 ee 49
<- ee 49 ee 49 ee 49 ee 49 ee 49 ee 49 ee 49 ee 49 ee 49 ee 49
<- ee 49 ee 49 ee 49 ee 49 ee 49 ee 49 ee 49 ee 49 ee 49 ee 49
<- ee 49 ee 49 ee 49 ee 49 0d 05 0d 01 00 02 00 01 00 04 05 33
<- 8a d0

-> 01 03 d0 00 00 26 fc d0
<- 01 03 4c 0d 01 0d 05 0d 03 0d 01 ee 49 ee 49 ee 49 ee 49
<- ee 49 ee 49 ee 49 ee 49 ee 49 ee 49 ee 49 ee 49 ee 49 ee 49
<- ee 49 ee 49 ee 49 ee 49 ee 49 ee 49 ee 49 ee 49 ee 49 ee 49
<- ee 49 ee 49 ee 49 ee 49 0d 05 0d 01 00 02 00 01 00 04 05 33
<- 8a d0

-> 01 03 d0 26 00 19 5d 0b
<- 01 03 32 02 58 00 00 00 00 00 00 00 00 00 00 02 6c 00 00
<- 00 00 02 6c 02 6c 02 58 00 00 00 00 00 64 00 64 30 d3 30 d4
<- 30 d4 00 06 00 00 00 00 00 00 00 00 00 00 a1 c2

-> 01 03 d1 15 00 0c 6d 37
<- 01 03 18 24 0c 00 00 02 a7 00 00 00 00 00 00 00 00 00 00
<- 00 00 00 00 00 00 00 00 bc 90

-> 01 03 d1 00 00 15 bd 39
<- 01 03 2a 00 00 00 00 00 00 00 00 00 00 0e 00 00 00 00 00
<- 00 00 00 00 00 00 00 00 00 00 00 00 00 00 00 00 00 00 01 00
<- 00 00 00 00 00 00 e8 5c

-> 01 03 23 1c 00 04 8e 4b
<- 01 03 08 00 04 00 01 00 06 00 0a 8d d1

-> 01 03 d2 00 00 01 bd 72
<- 01 03 02 00 00 b8 44

-> 01 03 d0 00 00 26 fc d0
<- 01 03 4c 0d 01 0d 05 0d 03 0d 01 ee 49 ee 49 ee 49 ee 49
<- ee 49 ee 49 ee 49 ee 49 ee 49 ee 49 ee 49 ee 49 ee 49 ee 49
<- ee 49 ee 49 ee 49 ee 49 ee 49 ee 49 ee 49 ee 49 ee 49 ee 49
<- ee 49 ee 49 ee 49 ee 49 0d 05 0d 01 00 02 00 01 00 04 05 33
<- 8a d0

-> 01 03 d0 00 00 26 fc d0
<- 01 03 4c 0d 01 0d 05 0d 03 0d 01 ee 49 ee 49 ee 49 ee 49
<- ee 49 ee 49 ee 49 ee 49 ee 49 ee 49 ee 49 ee 49 ee 49 ee 49
<- ee 49 ee 49 ee 49 ee 49 ee 49 ee 49 ee 49 ee 49 ee 49 ee 49
<- ee 49 ee 49 ee 49 ee 49 0d 05 0d 01 00 02 00 01 00 04 05 33
<- 8a d0

-> 01 03 d0 26 00 19 5d 0b
<- 01 03 32 02 58 00 00 00 00 00 00 00 00 00 00 02 6c 00 00
<- 00 00 02 6c 02 6c 02 58 00 00 00 00 00 64 00 64 30 d3 30 d4
<- 30 d4 00 06 00 00 00 00 00 00 00 00 00 00 a1 c2

-> 01 03 d1 15 00 0c 6d 37
<- 01 03 18 24 0c 00 00 02 a7 00 00 00 00 00 00 00 00 00 00
<- 00 00 00 00 00 00 00 00 bc 90

-> 01 03 d1 00 00 15 bd 39
<- 01 03 2a 00 00 00 00 00 00 00 00 00 00 0e 00 00 00 00 00
<- 00 00 00 00 00 00 00 00 00 00 00 00 00 00 00 00 00 00 01 00
<- 00 00 00 00 00 00 e8 5c

-> 01 03 23 1c 00 04 8e 4b
<- 01 03 08 00 04 00 01 00 06 00 0a 8d d1

-> 01 03 d2 00 00 01 bd 72
<- 01 03 02 00 00 b8 44

-> 01 03 d0 00 00 26 fc d0
<- 01 03 4c 0d 01 0d 05 0d 03 0d 01 ee 49 ee 49 ee 49 ee 49
<- ee 49 ee 49 ee 49 ee 49 ee 49 ee 49 ee 49 ee 49 ee 49 ee 49
<- ee 49 ee 49 ee 49 ee 49 ee 49 ee 49 ee 49 ee 49 ee 49 ee 49
<- ee 49 ee 49 ee 49 ee 49 0d 05 0d 01 00 02 00 01 00 04 05 33
<- 8a d0

-> 01 03 d0 00 00 26 fc d0
<- 01 03 4c 0d 01 0d 05 0d 03 0d 01 ee 49 ee 49 ee 49 ee 49
<- ee 49 ee 49 ee 49 ee 49 ee 49 ee 49 ee 49 ee 49 ee 49 ee 49
<- ee 49 ee 49 ee 49 ee 49 ee 49 ee 49 ee 49 ee 49 ee 49 ee 49
<- ee 49 ee 49 ee 49 ee 49 0d 05 0d 01 00 02 00 01 00 04 05 33
<- 8a d0

-> 01 03 d0 26 00 19 5d 0b
<- 01 03 32 02 58 00 00 00 00 00 00 00 00 00 00 02 6c 00 00
<- 00 00 02 6c 02 6c 02 58 00 00 00 00 00 64 00 64 30 d3 30 d4
<- 30 d4 00 06 00 00 00 00 00 00 00 00 00 00 a1 c2

-> 01 03 d1 15 00 0c 6d 37
<- 01 03 18 24 0c 00 00 02 a7 00 00 00 00 00 00 00 00 00 00
<- 00 00 00 00 00 00 00 00 bc 90

-> 01 03 d1 00 00 15 bd 39
<- 01 03 2a 00 00 00 00 00 00 00 00 00 00 0e 00 00 00 00 00
<- 00 00 00 00 00 00 00 00 00 00 00 00 00 00 00 00 00 00 01 00
<- 00 00 00 00 00 00 e8 5c

-> 01 03 23 1c 00 04 8e 4b
<- 01 03 08 00 04 00 01 00 06 00 0a 8d d1

-> 01 03 d2 00 00 01 bd 72
<- 01 03 02 00 00 b8 44

-> 01 03 d0 00 00 26 fc d0
<- 01 03 4c 0d 01 0d 05 0d 03 0d 01 ee 49 ee 49 ee 49 ee 49
<- ee 49 ee 49 ee 49 ee 49 ee 49 ee 49 ee 49 ee 49 ee 49 ee 49
<- ee 49 ee 49 ee 49 ee 49 ee 49 ee 49 ee 49 ee 49 ee 49 ee 49
<- ee 49 ee 49 ee 49 ee 49 0d 05 0d 01 00 02 00 01 00 04 05 33
<- 8a d0

-> 01 03 d0 00 00 26 fc d0
<- 01 03 4c 0d 01 0d 05 0d 03 0d 01 ee 49 ee 49 ee 49 ee 49
<- ee 49 ee 49 ee 49 ee 49 ee 49 ee 49 ee 49 ee 49 ee 49 ee 49
<- ee 49 ee 49 ee 49 ee 49 ee 49 ee 49 ee 49 ee 49 ee 49 ee 49
<- ee 49 ee 49 ee 49 ee 49 0d 05 0d 01 00 02 00 01 00 04 05 33
<- 8a d0

-> 01 03 d0 26 00 19 5d 0b
<- 01 03 32 02 58 00 00 00 00 00 00 00 00 00 00 02 6c 00 00
<- 00 00 02 6c 02 6c 02 58 00 00 00 00 00 64 00 64 30 d3 30 d4
<- 30 d4 00 06 00 00 00 00 00 00 00 00 00 00 a1 c2

-> 01 03 d1 15 00 0c 6d 37
<- 01 03 18 24 0c 00 00 02 a7 00 00 00 00 00 00 00 00 00 00
<- 00 00 00 00 00 00 00 00 bc 90

-> 01 03 d1 00 00 15 bd 39
<- 01 03 2a 00 00 00 00 00 00 00 00 00 00 0e 00 00 00 00 00
<- 00 00 00 00 00 00 00 00 00 00 00 00 00 00 00 00 00 00 01 00
<- 00 00 00 00 00 00 e8 5c

-> 01 03 23 1c 00 04 8e 4b
<- 01 03 08 00 04 00 01 00 06 00 0a 8d d1

-> 01 03 d2 00 00 01 bd 72
